T4748 1742:724 SEGGER J-Link V4.90 Log File (0000ms, 0516ms total)
T4748 1742:724 DLL Compiled: Jul 28 2014 10:35:20 (0000ms, 0516ms total)
T4748 1742:724 Logging started @ 2022-03-06 11:29 (0000ms, 0516ms total)
T4748 1742:724 JLINK_SetWarnOutHandler(...) (0000ms, 0516ms total)
T4748 1742:724 JLINK_OpenEx(...)
Firmware: J-Link V9 compiled Dec  2 2016 15:35:20
Hardware: V9.20
S/N: 269200585
Feature(s): GDB, RDI, FlashBP, FlashDL, JFlash, RDDIDevice "STM32F407VE" selected (512 KB flash, 128 KB RAM).  returns O.K. (0263ms, 0779ms total)
T4748 1742:987 JLINK_GetEmuCaps()  returns 0xB9FF7BBF (0000ms, 0779ms total)
T4748 1742:988 JLINK_TIF_GetAvailable(...) (0000ms, 0779ms total)
T4748 1742:988 JLINK_SetErrorOutHandler(...) (0000ms, 0779ms total)
T4748 1742:988 JLINK_ExecCommand("ProjectFile = "C:\Users\MarkV\Desktop\myGit\RP2021\RP2022\RP2021_HAL_Template\rp_template_hal_v1\MDK-ARM\JLinkSettings.ini"", ...)Device "STM32F407VE" selected (512 KB flash, 128 KB RAM).  returns 0x00 (0004ms, 0783ms total)
T4748 1742:996 JLINK_ExecCommand("Device = STM32F407VETx", ...)Device "STM32F407VE" selected (512 KB flash, 128 KB RAM).  returns 0x00 (0002ms, 0785ms total)
T4748 1742:998 JLINK_ExecCommand("DisableConnectionTimeout", ...)  returns 0x01 (0000ms, 0785ms total)
T4748 1742:998 JLINK_GetHardwareVersion()  returns 0x16760 (0000ms, 0785ms total)
T4748 1742:998 JLINK_GetDLLVersion()  returns 49000 (0000ms, 0785ms total)
T4748 1742:998 JLINK_GetFirmwareString(...) (0000ms, 0785ms total)
T4748 1743:001 JLINK_GetDLLVersion()  returns 49000 (0000ms, 0785ms total)
T4748 1743:001 JLINK_GetCompileDateTime() (0000ms, 0785ms total)
T4748 1743:003 JLINK_GetFirmwareString(...) (0000ms, 0785ms total)
T4748 1743:004 JLINK_GetHardwareVersion()  returns 0x16760 (0000ms, 0785ms total)
T4748 1743:015 JLINK_TIF_Select(JLINKARM_TIF_SWD)  returns 0x00 (0002ms, 0787ms total)
T4748 1743:017 JLINK_SetSpeed(20000) (0000ms, 0787ms total)
T4748 1743:017 JLINK_GetId() >0x108 TIF>Found SWD-DP with ID 0x2BA01477 >0x0D TIF> >0x28 TIF> >0x0D TIF> >0x28 TIF> >0x0D TIF> >0x21 TIF> >0x0D TIF> >0x28 TIF> >0x0D TIF> >0x28 TIF> >0x0D TIF> >0x28 TIF> >0x0D TIF> >0x21 TIF> >0x0D TIF> >0x21 TIF> >0x0D TIF> >0x28 TIF> >0x0D TIF> >0x21 TIF> >0x0D TIF> >0x21 TIF> >0x0D TIF> >0x28 TIF> >0x0D TIF> >0x21 TIF> >0x0D TIF> >0x21 TIF> >0x108 TIF>Found SWD-DP with ID 0x2BA01477 >0x0D TIF> >0x21 TIF> >0x0D TIF> >0x28 TIF> >0x0D TIF> >0x28 TIF> >0x0D TIF>
 >0x21 TIF> >0x0D TIF> >0x28 TIF> >0x0D TIF> >0x21 TIF> >0x0D TIF> >0x21 TIF> >0x0D TIF> >0x21 TIF> >0x0D TIF> >0x21 TIF> >0x0D TIF> >0x28 TIF> >0x0D TIF> >0x28 TIF> >0x0D TIF> >0x21 TIF> >0x0D TIF> >0x28 TIF> >0x0D TIF> >0x28 TIF> >0x0D TIF> >0x28 TIF> >0x0D TIF> >0x21 TIF> >0x0D TIF> >0x21 TIF> >0x0D TIF> >0x28 TIF> >0x0D TIF> >0x21 TIF> >0x0D TIF> >0x21 TIF>Found Cortex-M4 r0p1, Little endian. -- CPU_WriteMem(4 bytes @ 0xE0002000) -- CPU_ReadMem(4 bytes @ 0xE000EDF0)
 -- CPU_ReadMem(4 bytes @ 0xE0002000)FPUnit: 6 code (BP) slots and 2 literal slots -- CPU_ReadMem(4 bytes @ 0xE000EDFC) -- CPU_ReadMem(4 bytes @ 0xE0001000) -- CPU_WriteMem(4 bytes @ 0xE0001000) -- CPU_ReadMem(4 bytes @ 0xE00FF010)TPIU fitted. -- CPU_ReadMem(4 bytes @ 0xE00FF014)ETM fitted. -- CPU_ReadMem(4 bytes @ 0xE00FF018) >0x0D TIF> >0x21 TIF>  returns 0x2BA01477 (0049ms, 0836ms total)
T4748 1743:066 JLINK_GetDLLVersion()  returns 49000 (0000ms, 0836ms total)
T4748 1743:066 JLINK_CORE_GetFound()  returns 0xE0000FF (0000ms, 0836ms total)
T4748 1743:068 JLINK_GetDebugInfo(0x100) -- Value=0xE00FF003  returns 0x00 (0000ms, 0836ms total)
T4748 1743:068 JLINK_GetDebugInfo(0x101)  returns 0xFFFFFFFF (0000ms, 0836ms total)
T4748 1743:068 JLINK_ReadMemEx(0xE0041FF0, 0x0010 Bytes, ..., AccessWidth = 33554436) -- CPU is running -- CPU_ReadMem(16 bytes @ 0xE0041FF0) - Data: 0D 00 00 00 90 00 00 00 05 00 00 00 B1 00 00 00  returns 0x10 (0000ms, 0836ms total)
T4748 1743:068 JLINK_ReadMemEx(0xE0041FD0, 0x0020 Bytes, ..., AccessWidth = 33554436) -- CPU is running -- CPU_ReadMem(32 bytes @ 0xE0041FD0) - Data: 04 00 00 00 00 00 00 00 00 00 00 00 00 00 00 00 ...  returns 0x20 (0001ms, 0837ms total)
T4748 1743:069 JLINK_GetDebugInfo(0x102)  returns 0xFFFFFFFF (0000ms, 0837ms total)
T4748 1743:069 JLINK_GetDebugInfo(0x103)  returns 0xFFFFFFFF (0000ms, 0837ms total)
T4748 1743:069 JLINK_ReadMemEx(0xE0040FF0, 0x0010 Bytes, ..., AccessWidth = 33554436) -- CPU is running -- CPU_ReadMem(16 bytes @ 0xE0040FF0) - Data: 0D 00 00 00 90 00 00 00 05 00 00 00 B1 00 00 00  returns 0x10 (0001ms, 0838ms total)
T4748 1743:070 JLINK_GetDebugInfo(0x104)  returns 0xFFFFFFFF (0000ms, 0838ms total)
T4748 1743:070 JLINK_GetDebugInfo(0x105)  returns 0xFFFFFFFF (0000ms, 0838ms total)
T4748 1743:070 JLINK_GetDebugInfo(0x106)  returns 0xFFFFFFFF (0000ms, 0838ms total)
T4748 1743:070 JLINK_GetDebugInfo(0x107)  returns 0xFFFFFFFF (0000ms, 0838ms total)
T4748 1743:070 JLINK_GetDebugInfo(0x10C)  returns 0xFFFFFFFF (0000ms, 0838ms total)
T4748 1743:070 JLINK_GetDebugInfo(0x01)  returns 0xFFFFFFFF (0000ms, 0838ms total)
T4748 1743:070 JLINK_GetDeviceFamily()  returns 14 (0000ms, 0838ms total)
T4748 1743:070 JLINK_ReadMemU32(0xE000ED00, 0x0001 Items, ...) -- CPU is running -- CPU_ReadMem(4 bytes @ 0xE000ED00) - Data: 41 C2 0F 41  returns 0x01 (0000ms, 0838ms total)
T4748 1743:070 JLINK_GetDebugInfo(0x10F)  returns 0xFFFFFFFF (0000ms, 0838ms total)
T4748 1743:070 JLINK_SetResetType(JLINKARM_RESET_TYPE_NORMAL)  returns JLINKARM_RESET_TYPE_NORMAL (0000ms, 0838ms total)
T4748 1743:070 JLINK_Reset() -- CPU is running -- CPU_WriteMem(4 bytes @ 0xE000EDF0) -- CPU is running -- CPU_WriteMem(4 bytes @ 0xE000EDFC) >0x35 TIF> -- CPU is running -- CPU_WriteMem(4 bytes @ 0xE000ED0C) -- CPU is running -- CPU_ReadMem(4 bytes @ 0xE000EDF0) -- CPU is running -- CPU_ReadMem(4 bytes @ 0xE000EDF0) -- CPU is running -- CPU_WriteMem(4 bytes @ 0xE000EDF0) -- CPU is running -- CPU_WriteMem(4 bytes @ 0xE000EDFC) -- CPU is running -- CPU_ReadMem(4 bytes @ 0xE000EDF0)
 -- CPU_WriteMem(4 bytes @ 0xE0002000) -- CPU_ReadMem(4 bytes @ 0xE000EDFC) -- CPU_ReadMem(4 bytes @ 0xE0001000) (0020ms, 0858ms total)
T4748 1743:090 JLINK_Halt()  returns 0x00 (0000ms, 0858ms total)
T4748 1743:090 JLINK_ReadMemU32(0xE000EDF0, 0x0001 Items, ...) -- CPU_ReadMem(4 bytes @ 0xE000EDF0) - Data: 03 00 03 00  returns 0x01 (0000ms, 0858ms total)
T4748 1743:090 JLINK_WriteU32(0xE000EDF0, 0xA05F0003) -- CPU_WriteMem(4 bytes @ 0xE000EDF0)  returns 0x00 (0001ms, 0859ms total)
T4748 1743:091 JLINK_WriteU32(0xE000EDFC, 0x01000000) -- CPU_WriteMem(4 bytes @ 0xE000EDFC)  returns 0x00 (0001ms, 0860ms total)
T4748 1743:096 JLINK_GetHWStatus(...)  returns 0x00 (0001ms, 0861ms total)
T4748 1743:100 JLINK_GetNumBPUnits(Type = 0xFFFFFF00)  returns 0x06 (0000ms, 0861ms total)
T4748 1743:100 JLINK_GetNumBPUnits(Type = 0xF0)  returns 0x2000 (0000ms, 0861ms total)
T4748 1743:100 JLINK_GetNumWPUnits()  returns 0x04 (0000ms, 0861ms total)
T4748 1743:105 JLINK_GetSpeed()  returns 0x2EE0 (0000ms, 0861ms total)
T4748 1743:107 JLINK_ReadMemU32(0xE000E004, 0x0001 Items, ...) -- CPU_ReadMem(4 bytes @ 0xE000E004) - Data: 02 00 00 00  returns 0x01 (0001ms, 0862ms total)
T4748 1743:108 JLINK_ReadMemU32(0xE000E004, 0x0001 Items, ...) -- CPU_ReadMem(4 bytes @ 0xE000E004) - Data: 02 00 00 00  returns 0x01 (0000ms, 0862ms total)
T4748 1743:108 JLINK_WriteMemEx(0xE0001000, 0x001C Bytes, ..., AccessWidth = 33554436) - Data: 01 00 00 00 00 00 00 00 00 00 00 00 00 00 00 00 ... -- CPU_WriteMem(28 bytes @ 0xE0001000)  returns 0x1C (0001ms, 0863ms total)
T4748 1743:109 JLINK_Halt()  returns 0x00 (0000ms, 0863ms total)
T4748 1743:109 JLINK_IsHalted()  returns TRUE (0000ms, 0863ms total)
T4748 1743:111 JLINK_WriteMem(0x20000000, 0x0188 Bytes, ...) - Data: 00 BE 0A E0 0D 78 2D 06 68 40 08 24 40 00 00 D3 ... -- CPU_WriteMem(392 bytes @ 0x20000000)  returns 0x188 (0002ms, 0865ms total)
T4748 1743:113 JLINK_WriteReg(R0, 0x08000000)  returns 0x00 (0000ms, 0865ms total)
T4748 1743:113 JLINK_WriteReg(R1, 0x017D7840)  returns 0x00 (0000ms, 0865ms total)
T4748 1743:113 JLINK_WriteReg(R2, 0x00000001)  returns 0x00 (0000ms, 0865ms total)
T4748 1743:113 JLINK_WriteReg(R3, 0x00000000)  returns 0x00 (0000ms, 0865ms total)
T4748 1743:113 JLINK_WriteReg(R4, 0x00000000)  returns 0x00 (0000ms, 0865ms total)
T4748 1743:113 JLINK_WriteReg(R5, 0x00000000)  returns 0x00 (0000ms, 0865ms total)
T4748 1743:113 JLINK_WriteReg(R6, 0x00000000)  returns 0x00 (0000ms, 0865ms total)
T4748 1743:113 JLINK_WriteReg(R7, 0x00000000)  returns 0x00 (0000ms, 0865ms total)
T4748 1743:113 JLINK_WriteReg(R8, 0x00000000)  returns 0x00 (0000ms, 0865ms total)
T4748 1743:113 JLINK_WriteReg(R9, 0x20000184)  returns 0x00 (0000ms, 0865ms total)
T4748 1743:113 JLINK_WriteReg(R10, 0x00000000)  returns 0x00 (0000ms, 0865ms total)
T4748 1743:113 JLINK_WriteReg(R11, 0x00000000)  returns 0x00 (0000ms, 0865ms total)
T4748 1743:113 JLINK_WriteReg(R12, 0x00000000)  returns 0x00 (0000ms, 0865ms total)
T4748 1743:113 JLINK_WriteReg(R13 (SP), 0x20001000)  returns 0x00 (0000ms, 0865ms total)
T4748 1743:113 JLINK_WriteReg(R14, 0x20000001)  returns 0x00 (0000ms, 0865ms total)
T4748 1743:113 JLINK_WriteReg(R15 (PC), 0x2000005E)  returns 0x00 (0000ms, 0865ms total)
T4748 1743:113 JLINK_WriteReg(XPSR, 0x01000000)  returns 0x00 (0000ms, 0865ms total)
T4748 1743:113 JLINK_WriteReg(MSP, 0x20001000)  returns 0x00 (0000ms, 0865ms total)
T4748 1743:113 JLINK_WriteReg(PSP, 0x20001000)  returns 0x00 (0000ms, 0865ms total)
T4748 1743:113 JLINK_WriteReg(CFBP, 0x00000000)  returns 0x00 (0000ms, 0865ms total)
T4748 1743:113 JLINK_SetBPEx(Addr = 0x20000000, Type = 0xFFFFFFF2) -- CPU_ReadMem(2 bytes @ 0x20000000)  returns 0x00000001 (0001ms, 0866ms total)
T4748 1743:114 JLINK_Go() -- CPU_WriteMem(2 bytes @ 0x20000000) -- CPU_WriteMem(4 bytes @ 0xE0002008) -- CPU_WriteMem(4 bytes @ 0xE000200C) -- CPU_WriteMem(4 bytes @ 0xE0002010) -- CPU_WriteMem(4 bytes @ 0xE0002014) -- CPU_WriteMem(4 bytes @ 0xE0002018) -- CPU_WriteMem(4 bytes @ 0xE000201C) -- CPU_WriteMem(4 bytes @ 0xE0001004) (0006ms, 0872ms total)
T4748 1743:120 JLINK_IsHalted() -- CPU_ReadMem(2 bytes @ 0x20000000)  returns TRUE (0003ms, 0875ms total)
T4748 1743:123 JLINK_ReadReg(R15 (PC))  returns 0x20000000 (0000ms, 0872ms total)
T4748 1743:123 JLINK_ClrBPEx(BPHandle = 0x00000001)  returns 0x00 (0000ms, 0872ms total)
T4748 1743:123 JLINK_ReadReg(R0)  returns 0x00000000 (0000ms, 0872ms total)
T4748 1743:123 JLINK_WriteReg(R0, 0x08000000)  returns 0x00 (0000ms, 0872ms total)
T4748 1743:123 JLINK_WriteReg(R1, 0x00004000)  returns 0x00 (0000ms, 0872ms total)
T4748 1743:123 JLINK_WriteReg(R2, 0x000000FF)  returns 0x00 (0000ms, 0872ms total)
T4748 1743:123 JLINK_WriteReg(R3, 0x00000000)  returns 0x00 (0000ms, 0872ms total)
T4748 1743:123 JLINK_WriteReg(R4, 0x00000000)  returns 0x00 (0000ms, 0872ms total)
T4748 1743:123 JLINK_WriteReg(R5, 0x00000000)  returns 0x00 (0000ms, 0872ms total)
T4748 1743:123 JLINK_WriteReg(R6, 0x00000000)  returns 0x00 (0000ms, 0872ms total)
T4748 1743:123 JLINK_WriteReg(R7, 0x00000000)  returns 0x00 (0000ms, 0872ms total)
T4748 1743:123 JLINK_WriteReg(R8, 0x00000000)  returns 0x00 (0000ms, 0872ms total)
T4748 1743:123 JLINK_WriteReg(R9, 0x20000184)  returns 0x00 (0000ms, 0872ms total)
T4748 1743:123 JLINK_WriteReg(R10, 0x00000000)  returns 0x00 (0000ms, 0872ms total)
T4748 1743:123 JLINK_WriteReg(R11, 0x00000000)  returns 0x00 (0000ms, 0872ms total)
T4748 1743:123 JLINK_WriteReg(R12, 0x00000000)  returns 0x00 (0000ms, 0872ms total)
T4748 1743:123 JLINK_WriteReg(R13 (SP), 0x20001000)  returns 0x00 (0000ms, 0872ms total)
T4748 1743:123 JLINK_WriteReg(R14, 0x20000001)  returns 0x00 (0000ms, 0872ms total)
T4748 1743:123 JLINK_WriteReg(R15 (PC), 0x20000020)  returns 0x00 (0000ms, 0872ms total)
T4748 1743:123 JLINK_WriteReg(XPSR, 0x01000000)  returns 0x00 (0000ms, 0872ms total)
T4748 1743:123 JLINK_WriteReg(MSP, 0x20001000)  returns 0x00 (0000ms, 0872ms total)
T4748 1743:123 JLINK_WriteReg(PSP, 0x20001000)  returns 0x00 (0000ms, 0872ms total)
T4748 1743:123 JLINK_WriteReg(CFBP, 0x00000000)  returns 0x00 (0000ms, 0872ms total)
T4748 1743:123 JLINK_SetBPEx(Addr = 0x20000000, Type = 0xFFFFFFF2)  returns 0x00000002 (0000ms, 0872ms total)
T4748 1743:123 JLINK_Go() (0001ms, 0873ms total)
T4748 1743:124 JLINK_IsHalted() -- CPU_ReadMem(2 bytes @ 0x20000000)  returns TRUE (0004ms, 0877ms total)
T4748 1743:128 JLINK_ReadReg(R15 (PC))  returns 0x20000000 (0000ms, 0873ms total)
T4748 1743:128 JLINK_ClrBPEx(BPHandle = 0x00000002)  returns 0x00 (0000ms, 0873ms total)
T4748 1743:128 JLINK_ReadReg(R0)  returns 0x00000001 (0000ms, 0873ms total)
T4748 1743:128 JLINK_WriteReg(R0, 0x08000000)  returns 0x00 (0000ms, 0873ms total)
T4748 1743:128 JLINK_WriteReg(R1, 0x00004000)  returns 0x00 (0000ms, 0873ms total)
T4748 1743:128 JLINK_WriteReg(R2, 0x000000FF)  returns 0x00 (0000ms, 0873ms total)
T4748 1743:128 JLINK_WriteReg(R3, 0x00000000)  returns 0x00 (0000ms, 0873ms total)
T4748 1743:128 JLINK_WriteReg(R4, 0x00000000)  returns 0x00 (0000ms, 0873ms total)
T4748 1743:128 JLINK_WriteReg(R5, 0x00000000)  returns 0x00 (0000ms, 0873ms total)
T4748 1743:128 JLINK_WriteReg(R6, 0x00000000)  returns 0x00 (0000ms, 0873ms total)
T4748 1743:128 JLINK_WriteReg(R7, 0x00000000)  returns 0x00 (0000ms, 0873ms total)
T4748 1743:128 JLINK_WriteReg(R8, 0x00000000)  returns 0x00 (0000ms, 0873ms total)
T4748 1743:128 JLINK_WriteReg(R9, 0x20000184)  returns 0x00 (0000ms, 0873ms total)
T4748 1743:128 JLINK_WriteReg(R10, 0x00000000)  returns 0x00 (0000ms, 0873ms total)
T4748 1743:128 JLINK_WriteReg(R11, 0x00000000)  returns 0x00 (0000ms, 0873ms total)
T4748 1743:128 JLINK_WriteReg(R12, 0x00000000)  returns 0x00 (0000ms, 0873ms total)
T4748 1743:128 JLINK_WriteReg(R13 (SP), 0x20001000)  returns 0x00 (0000ms, 0873ms total)
T4748 1743:128 JLINK_WriteReg(R14, 0x20000001)  returns 0x00 (0000ms, 0873ms total)
T4748 1743:128 JLINK_WriteReg(R15 (PC), 0x200000C6)  returns 0x00 (0000ms, 0873ms total)
T4748 1743:128 JLINK_WriteReg(XPSR, 0x01000000)  returns 0x00 (0000ms, 0873ms total)
T4748 1743:128 JLINK_WriteReg(MSP, 0x20001000)  returns 0x00 (0000ms, 0873ms total)
T4748 1743:128 JLINK_WriteReg(PSP, 0x20001000)  returns 0x00 (0000ms, 0873ms total)
T4748 1743:128 JLINK_WriteReg(CFBP, 0x00000000)  returns 0x00 (0000ms, 0873ms total)
T4748 1743:128 JLINK_SetBPEx(Addr = 0x20000000, Type = 0xFFFFFFF2)  returns 0x00000003 (0000ms, 0873ms total)
T4748 1743:128 JLINK_Go() (0001ms, 0874ms total)
T4748 1743:129 JLINK_IsHalted()  returns FALSE (0001ms, 0875ms total)
T4748 1743:153 JLINK_IsHalted()  returns FALSE (0000ms, 0874ms total)
T4748 1743:156 JLINK_IsHalted()  returns FALSE (0000ms, 0874ms total)
T4748 1743:158 JLINK_IsHalted()  returns FALSE (0001ms, 0875ms total)
T4748 1743:161 JLINK_IsHalted()  returns FALSE (0000ms, 0874ms total)
T4748 1743:164 JLINK_IsHalted()  returns FALSE (0000ms, 0874ms total)
T4748 1743:166 JLINK_IsHalted()  returns FALSE (0000ms, 0874ms total)
T4748 1743:169 JLINK_IsHalted()  returns FALSE (0000ms, 0874ms total)
T4748 1743:171 JLINK_IsHalted()  returns FALSE (0000ms, 0874ms total)
T4748 1743:173 JLINK_IsHalted()  returns FALSE (0000ms, 0874ms total)
T4748 1743:175 JLINK_IsHalted()  returns FALSE (0000ms, 0874ms total)
T4748 1743:177 JLINK_IsHalted()  returns FALSE (0000ms, 0874ms total)
T4748 1743:179 JLINK_IsHalted()  returns FALSE (0001ms, 0875ms total)
T4748 1743:181 JLINK_IsHalted()  returns FALSE (0001ms, 0875ms total)
T4748 1743:184 JLINK_IsHalted()  returns FALSE (0000ms, 0874ms total)
T4748 1743:186 JLINK_IsHalted()  returns FALSE (0000ms, 0874ms total)
T4748 1743:188 JLINK_IsHalted()  returns FALSE (0001ms, 0875ms total)
T4748 1743:190 JLINK_IsHalted()  returns FALSE (0001ms, 0875ms total)
T4748 1743:192 JLINK_IsHalted()  returns FALSE (0000ms, 0874ms total)
T4748 1743:194 JLINK_IsHalted()  returns FALSE (0001ms, 0875ms total)
T4748 1743:196 JLINK_IsHalted()  returns FALSE (0000ms, 0874ms total)
T4748 1743:198 JLINK_IsHalted()  returns FALSE (0000ms, 0874ms total)
T4748 1743:200 JLINK_IsHalted()  returns FALSE (0000ms, 0874ms total)
T4748 1743:202 JLINK_IsHalted()  returns FALSE (0001ms, 0875ms total)
T4748 1743:205 JLINK_IsHalted()  returns FALSE (0000ms, 0874ms total)
T4748 1743:208 JLINK_IsHalted()  returns FALSE (0000ms, 0874ms total)
T4748 1743:210 JLINK_IsHalted()  returns FALSE (0000ms, 0874ms total)
T4748 1743:212 JLINK_IsHalted()  returns FALSE (0000ms, 0874ms total)
T4748 1743:215 JLINK_IsHalted()  returns FALSE (0000ms, 0874ms total)
T4748 1743:217 JLINK_IsHalted()  returns FALSE (0000ms, 0874ms total)
T4748 1743:219 JLINK_IsHalted()  returns FALSE (0000ms, 0874ms total)
T4748 1743:221 JLINK_IsHalted()  returns FALSE (0001ms, 0875ms total)
T4748 1743:223 JLINK_IsHalted()  returns FALSE (0000ms, 0874ms total)
T4748 1743:224 JLINK_IsHalted()  returns FALSE (0001ms, 0875ms total)
T4748 1743:227 JLINK_IsHalted()  returns FALSE (0000ms, 0874ms total)
T4748 1743:233 JLINK_IsHalted()  returns FALSE (0000ms, 0874ms total)
T4748 1743:234 JLINK_IsHalted()  returns FALSE (0001ms, 0875ms total)
T4748 1743:237 JLINK_IsHalted()  returns FALSE (0000ms, 0874ms total)
T4748 1743:239 JLINK_IsHalted()  returns FALSE (0001ms, 0875ms total)
T4748 1743:241 JLINK_IsHalted()  returns FALSE (0001ms, 0875ms total)
T4748 1743:244 JLINK_IsHalted()  returns FALSE (0000ms, 0874ms total)
T4748 1743:247 JLINK_IsHalted()  returns FALSE (0000ms, 0874ms total)
T4748 1743:249 JLINK_IsHalted()  returns FALSE (0000ms, 0874ms total)
T4748 1743:251 JLINK_IsHalted()  returns FALSE (0000ms, 0874ms total)
T4748 1743:254 JLINK_IsHalted()  returns FALSE (0000ms, 0874ms total)
T4748 1743:256 JLINK_IsHalted()  returns FALSE (0000ms, 0874ms total)
T4748 1743:259 JLINK_IsHalted()  returns FALSE (0000ms, 0874ms total)
T4748 1743:262 JLINK_IsHalted()  returns FALSE (0001ms, 0875ms total)
T4748 1743:265 JLINK_IsHalted()  returns FALSE (0000ms, 0874ms total)
T4748 1743:267 JLINK_IsHalted()  returns FALSE (0001ms, 0875ms total)
T4748 1743:271 JLINK_IsHalted()  returns FALSE (0001ms, 0875ms total)
T4748 1743:273 JLINK_IsHalted()  returns FALSE (0001ms, 0875ms total)
T4748 1743:276 JLINK_IsHalted()  returns FALSE (0000ms, 0874ms total)
T4748 1743:278 JLINK_IsHalted()  returns FALSE (0000ms, 0874ms total)
T4748 1743:280 JLINK_IsHalted()  returns FALSE (0001ms, 0875ms total)
T4748 1743:283 JLINK_IsHalted()  returns FALSE (0001ms, 0875ms total)
T4748 1743:285 JLINK_IsHalted()  returns FALSE (0001ms, 0875ms total)
T4748 1743:288 JLINK_IsHalted()  returns FALSE (0001ms, 0875ms total)
T4748 1743:291 JLINK_IsHalted()  returns FALSE (0000ms, 0874ms total)
T4748 1743:293 JLINK_IsHalted()  returns FALSE (0000ms, 0874ms total)
T4748 1743:295 JLINK_IsHalted()  returns FALSE (0000ms, 0874ms total)
T4748 1743:297 JLINK_IsHalted()  returns FALSE (0001ms, 0875ms total)
T4748 1743:299 JLINK_IsHalted()  returns FALSE (0001ms, 0875ms total)
T4748 1743:302 JLINK_IsHalted()  returns FALSE (0000ms, 0874ms total)
T4748 1743:304 JLINK_IsHalted()  returns FALSE (0001ms, 0875ms total)
T4748 1743:307 JLINK_IsHalted()  returns FALSE (0000ms, 0874ms total)
T4748 1743:309 JLINK_IsHalted()  returns FALSE (0000ms, 0874ms total)
T4748 1743:311 JLINK_IsHalted()  returns FALSE (0001ms, 0875ms total)
T4748 1743:314 JLINK_IsHalted()  returns FALSE (0000ms, 0874ms total)
T4748 1743:317 JLINK_IsHalted()  returns FALSE (0000ms, 0874ms total)
T4748 1743:319 JLINK_IsHalted()  returns FALSE (0000ms, 0874ms total)
T4748 1743:320 JLINK_IsHalted()  returns FALSE (0001ms, 0875ms total)
T4748 1743:323 JLINK_IsHalted()  returns FALSE (0000ms, 0874ms total)
T4748 1743:325 JLINK_IsHalted()  returns FALSE (0000ms, 0874ms total)
T4748 1743:327 JLINK_IsHalted()  returns FALSE (0001ms, 0875ms total)
T4748 1743:329 JLINK_IsHalted()  returns FALSE (0001ms, 0875ms total)
T4748 1743:331 JLINK_IsHalted()  returns FALSE (0001ms, 0875ms total)
T4748 1743:333 JLINK_IsHalted()  returns FALSE (0000ms, 0874ms total)
T4748 1743:335 JLINK_IsHalted()  returns FALSE (0000ms, 0874ms total)
T4748 1743:337 JLINK_IsHalted()  returns FALSE (0001ms, 0875ms total)
T4748 1743:340 JLINK_IsHalted()  returns FALSE (0000ms, 0874ms total)
T4748 1743:342 JLINK_IsHalted()  returns FALSE (0000ms, 0874ms total)
T4748 1743:344 JLINK_IsHalted()  returns FALSE (0000ms, 0874ms total)
T4748 1743:346 JLINK_IsHalted()  returns FALSE (0000ms, 0874ms total)
T4748 1743:348 JLINK_IsHalted()  returns FALSE (0000ms, 0874ms total)
T4748 1743:350 JLINK_IsHalted()  returns FALSE (0000ms, 0874ms total)
T4748 1743:352 JLINK_IsHalted()  returns FALSE (0001ms, 0875ms total)
T4748 1743:355 JLINK_IsHalted()  returns FALSE (0000ms, 0874ms total)
T4748 1743:357 JLINK_IsHalted()  returns FALSE (0001ms, 0875ms total)
T4748 1743:359 JLINK_IsHalted()  returns FALSE (0001ms, 0875ms total)
T4748 1743:361 JLINK_IsHalted()  returns FALSE (0001ms, 0875ms total)
T4748 1743:363 JLINK_IsHalted()  returns FALSE (0000ms, 0874ms total)
T4748 1743:364 JLINK_IsHalted()  returns FALSE (0000ms, 0874ms total)
T4748 1743:366 JLINK_IsHalted()  returns FALSE (0000ms, 0874ms total)
T4748 1743:370 JLINK_IsHalted()  returns FALSE (0000ms, 0874ms total)
T4748 1743:372 JLINK_IsHalted()  returns FALSE (0000ms, 0874ms total)
T4748 1743:374 JLINK_IsHalted()  returns FALSE (0000ms, 0874ms total)
T4748 1743:376 JLINK_IsHalted()  returns FALSE (0001ms, 0875ms total)
T4748 1743:379 JLINK_IsHalted()  returns FALSE (0000ms, 0874ms total)
T4748 1743:381 JLINK_IsHalted()  returns FALSE (0000ms, 0874ms total)
T4748 1743:383 JLINK_IsHalted()  returns FALSE (0000ms, 0874ms total)
T4748 1743:385 JLINK_IsHalted()  returns FALSE (0000ms, 0874ms total)
T4748 1743:388 JLINK_IsHalted()  returns FALSE (0001ms, 0875ms total)
T4748 1743:390 JLINK_IsHalted()  returns FALSE (0001ms, 0875ms total)
T4748 1743:392 JLINK_IsHalted()  returns FALSE (0001ms, 0875ms total)
T4748 1743:394 JLINK_IsHalted()  returns FALSE (0000ms, 0874ms total)
T4748 1743:396 JLINK_IsHalted()  returns FALSE (0000ms, 0874ms total)
T4748 1743:398 JLINK_IsHalted()  returns FALSE (0000ms, 0874ms total)
T4748 1743:400 JLINK_IsHalted()  returns FALSE (0000ms, 0874ms total)
T4748 1743:402 JLINK_IsHalted()  returns FALSE (0001ms, 0875ms total)
T4748 1743:404 JLINK_IsHalted()  returns FALSE (0001ms, 0875ms total)
T4748 1743:406 JLINK_IsHalted()  returns FALSE (0000ms, 0874ms total)
T4748 1743:408 JLINK_IsHalted()  returns FALSE (0000ms, 0874ms total)
T4748 1743:410 JLINK_IsHalted()  returns FALSE (0000ms, 0874ms total)
T4748 1743:412 JLINK_IsHalted()  returns FALSE (0000ms, 0874ms total)
T4748 1743:414 JLINK_IsHalted()  returns FALSE (0001ms, 0875ms total)
T4748 1743:417 JLINK_IsHalted()  returns FALSE (0000ms, 0874ms total)
T4748 1743:419 JLINK_IsHalted()  returns FALSE (0001ms, 0875ms total)
T4748 1743:421 JLINK_IsHalted()  returns FALSE (0000ms, 0874ms total)
T4748 1743:424 JLINK_IsHalted()  returns FALSE (0000ms, 0874ms total)
T4748 1743:426 JLINK_IsHalted()  returns FALSE (0000ms, 0874ms total)
T4748 1743:428 JLINK_IsHalted()  returns FALSE (0000ms, 0874ms total)
T4748 1743:430 JLINK_IsHalted()  returns FALSE (0001ms, 0875ms total)
T4748 1743:433 JLINK_IsHalted()  returns FALSE (0000ms, 0874ms total)
T4748 1743:435 JLINK_IsHalted()  returns FALSE (0000ms, 0874ms total)
T4748 1743:437 JLINK_IsHalted()  returns FALSE (0000ms, 0874ms total)
T4748 1743:439 JLINK_IsHalted()  returns FALSE (0000ms, 0874ms total)
T4748 1743:441 JLINK_IsHalted()  returns FALSE (0000ms, 0874ms total)
T4748 1743:443 JLINK_IsHalted()  returns FALSE (0000ms, 0874ms total)
T4748 1743:444 JLINK_IsHalted()  returns FALSE (0001ms, 0875ms total)
T4748 1743:447 JLINK_IsHalted()  returns FALSE (0000ms, 0874ms total)
T4748 1743:449 JLINK_IsHalted()  returns FALSE (0001ms, 0875ms total)
T4748 1743:451 JLINK_IsHalted()  returns FALSE (0001ms, 0875ms total)
T4748 1743:454 JLINK_IsHalted()  returns FALSE (0001ms, 0875ms total)
T4748 1743:456 JLINK_IsHalted()  returns FALSE (0001ms, 0875ms total)
T4748 1743:458 JLINK_IsHalted()  returns FALSE (0000ms, 0874ms total)
T4748 1743:460 JLINK_IsHalted()  returns FALSE (0001ms, 0875ms total)
T4748 1743:463 JLINK_IsHalted()  returns FALSE (0000ms, 0874ms total)
T4748 1743:465 JLINK_IsHalted()  returns FALSE (0000ms, 0874ms total)
T4748 1743:467 JLINK_IsHalted()  returns FALSE (0001ms, 0875ms total)
T4748 1743:469 JLINK_IsHalted()  returns FALSE (0001ms, 0875ms total)
T4748 1743:472 JLINK_IsHalted()  returns FALSE (0000ms, 0874ms total)
T4748 1743:474 JLINK_IsHalted()  returns FALSE (0000ms, 0874ms total)
T4748 1743:475 JLINK_IsHalted()  returns FALSE (0000ms, 0874ms total)
T4748 1743:478 JLINK_IsHalted() -- CPU_ReadMem(2 bytes @ 0x20000000)  returns TRUE (0003ms, 0877ms total)
T4748 1743:481 JLINK_ReadReg(R15 (PC))  returns 0x20000000 (0000ms, 0874ms total)
T4748 1743:481 JLINK_ClrBPEx(BPHandle = 0x00000003)  returns 0x00 (0000ms, 0874ms total)
T4748 1743:481 JLINK_ReadReg(R0)  returns 0x00000000 (0000ms, 0874ms total)
T4748 1743:481 JLINK_WriteReg(R0, 0x08004000)  returns 0x00 (0000ms, 0874ms total)
T4748 1743:481 JLINK_WriteReg(R1, 0x00004000)  returns 0x00 (0000ms, 0874ms total)
T4748 1743:481 JLINK_WriteReg(R2, 0x000000FF)  returns 0x00 (0000ms, 0874ms total)
T4748 1743:481 JLINK_WriteReg(R3, 0x00000000)  returns 0x00 (0000ms, 0874ms total)
T4748 1743:481 JLINK_WriteReg(R4, 0x00000000)  returns 0x00 (0000ms, 0874ms total)
T4748 1743:481 JLINK_WriteReg(R5, 0x00000000)  returns 0x00 (0000ms, 0874ms total)
T4748 1743:481 JLINK_WriteReg(R6, 0x00000000)  returns 0x00 (0000ms, 0874ms total)
T4748 1743:481 JLINK_WriteReg(R7, 0x00000000)  returns 0x00 (0000ms, 0874ms total)
T4748 1743:481 JLINK_WriteReg(R8, 0x00000000)  returns 0x00 (0000ms, 0874ms total)
T4748 1743:481 JLINK_WriteReg(R9, 0x20000184)  returns 0x00 (0000ms, 0874ms total)
T4748 1743:481 JLINK_WriteReg(R10, 0x00000000)  returns 0x00 (0000ms, 0874ms total)
T4748 1743:481 JLINK_WriteReg(R11, 0x00000000)  returns 0x00 (0000ms, 0874ms total)
T4748 1743:481 JLINK_WriteReg(R12, 0x00000000)  returns 0x00 (0000ms, 0874ms total)
T4748 1743:481 JLINK_WriteReg(R13 (SP), 0x20001000)  returns 0x00 (0000ms, 0874ms total)
T4748 1743:481 JLINK_WriteReg(R14, 0x20000001)  returns 0x00 (0000ms, 0874ms total)
T4748 1743:481 JLINK_WriteReg(R15 (PC), 0x20000020)  returns 0x00 (0000ms, 0874ms total)
T4748 1743:481 JLINK_WriteReg(XPSR, 0x01000000)  returns 0x00 (0000ms, 0874ms total)
T4748 1743:481 JLINK_WriteReg(MSP, 0x20001000)  returns 0x00 (0000ms, 0874ms total)
T4748 1743:481 JLINK_WriteReg(PSP, 0x20001000)  returns 0x00 (0000ms, 0874ms total)
T4748 1743:481 JLINK_WriteReg(CFBP, 0x00000000)  returns 0x00 (0000ms, 0874ms total)
T4748 1743:481 JLINK_SetBPEx(Addr = 0x20000000, Type = 0xFFFFFFF2)  returns 0x00000004 (0000ms, 0874ms total)
T4748 1743:481 JLINK_Go() (0003ms, 0877ms total)
T4748 1743:484 JLINK_IsHalted()  returns FALSE (0000ms, 0877ms total)
T4748 1743:485 JLINK_IsHalted()  returns FALSE (0000ms, 0877ms total)
T4748 1743:488 JLINK_IsHalted()  returns FALSE (0000ms, 0877ms total)
T4748 1743:490 JLINK_IsHalted()  returns FALSE (0000ms, 0877ms total)
T4748 1743:492 JLINK_IsHalted()  returns FALSE (0000ms, 0877ms total)
T4748 1743:494 JLINK_IsHalted()  returns FALSE (0001ms, 0878ms total)
T4748 1743:497 JLINK_IsHalted()  returns FALSE (0000ms, 0877ms total)
T4748 1743:499 JLINK_IsHalted() -- CPU_ReadMem(2 bytes @ 0x20000000)  returns TRUE (0002ms, 0879ms total)
T4748 1743:501 JLINK_ReadReg(R15 (PC))  returns 0x20000000 (0000ms, 0877ms total)
T4748 1743:501 JLINK_ClrBPEx(BPHandle = 0x00000004)  returns 0x00 (0000ms, 0877ms total)
T4748 1743:501 JLINK_ReadReg(R0)  returns 0x00000000 (0000ms, 0877ms total)
T4748 1743:501 JLINK_WriteReg(R0, 0x08008000)  returns 0x00 (0000ms, 0877ms total)
T4748 1743:501 JLINK_WriteReg(R1, 0x00004000)  returns 0x00 (0000ms, 0877ms total)
T4748 1743:501 JLINK_WriteReg(R2, 0x000000FF)  returns 0x00 (0000ms, 0877ms total)
T4748 1743:501 JLINK_WriteReg(R3, 0x00000000)  returns 0x00 (0000ms, 0877ms total)
T4748 1743:501 JLINK_WriteReg(R4, 0x00000000)  returns 0x00 (0000ms, 0877ms total)
T4748 1743:501 JLINK_WriteReg(R5, 0x00000000)  returns 0x00 (0000ms, 0877ms total)
T4748 1743:501 JLINK_WriteReg(R6, 0x00000000)  returns 0x00 (0000ms, 0877ms total)
T4748 1743:501 JLINK_WriteReg(R7, 0x00000000)  returns 0x00 (0000ms, 0877ms total)
T4748 1743:501 JLINK_WriteReg(R8, 0x00000000)  returns 0x00 (0000ms, 0877ms total)
T4748 1743:501 JLINK_WriteReg(R9, 0x20000184)  returns 0x00 (0000ms, 0877ms total)
T4748 1743:501 JLINK_WriteReg(R10, 0x00000000)  returns 0x00 (0000ms, 0877ms total)
T4748 1743:501 JLINK_WriteReg(R11, 0x00000000)  returns 0x00 (0000ms, 0877ms total)
T4748 1743:501 JLINK_WriteReg(R12, 0x00000000)  returns 0x00 (0000ms, 0877ms total)
T4748 1743:501 JLINK_WriteReg(R13 (SP), 0x20001000)  returns 0x00 (0000ms, 0877ms total)
T4748 1743:501 JLINK_WriteReg(R14, 0x20000001)  returns 0x00 (0000ms, 0877ms total)
T4748 1743:501 JLINK_WriteReg(R15 (PC), 0x20000020)  returns 0x00 (0000ms, 0877ms total)
T4748 1743:501 JLINK_WriteReg(XPSR, 0x01000000)  returns 0x00 (0000ms, 0877ms total)
T4748 1743:501 JLINK_WriteReg(MSP, 0x20001000)  returns 0x00 (0001ms, 0878ms total)
T4748 1743:502 JLINK_WriteReg(PSP, 0x20001000)  returns 0x00 (0000ms, 0878ms total)
T4748 1743:502 JLINK_WriteReg(CFBP, 0x00000000)  returns 0x00 (0000ms, 0878ms total)
T4748 1743:502 JLINK_SetBPEx(Addr = 0x20000000, Type = 0xFFFFFFF2)  returns 0x00000005 (0000ms, 0878ms total)
T4748 1743:502 JLINK_Go() (0002ms, 0880ms total)
T4748 1743:504 JLINK_IsHalted()  returns FALSE (0000ms, 0880ms total)
T4748 1743:506 JLINK_IsHalted()  returns FALSE (0001ms, 0881ms total)
T4748 1743:509 JLINK_IsHalted()  returns FALSE (0000ms, 0880ms total)
T4748 1743:511 JLINK_IsHalted()  returns FALSE (0000ms, 0880ms total)
T4748 1743:513 JLINK_IsHalted()  returns FALSE (0000ms, 0880ms total)
T4748 1743:515 JLINK_IsHalted()  returns FALSE (0000ms, 0880ms total)
T4748 1743:517 JLINK_IsHalted()  returns FALSE (0001ms, 0881ms total)
T4748 1743:519 JLINK_IsHalted() -- CPU_ReadMem(2 bytes @ 0x20000000)  returns TRUE (0003ms, 0883ms total)
T4748 1743:522 JLINK_ReadReg(R15 (PC))  returns 0x20000000 (0000ms, 0880ms total)
T4748 1743:522 JLINK_ClrBPEx(BPHandle = 0x00000005)  returns 0x00 (0000ms, 0880ms total)
T4748 1743:522 JLINK_ReadReg(R0)  returns 0x00000000 (0000ms, 0880ms total)
T4748 1743:522 JLINK_WriteReg(R0, 0x0800C000)  returns 0x00 (0001ms, 0881ms total)
T4748 1743:523 JLINK_WriteReg(R1, 0x00004000)  returns 0x00 (0000ms, 0881ms total)
T4748 1743:523 JLINK_WriteReg(R2, 0x000000FF)  returns 0x00 (0000ms, 0881ms total)
T4748 1743:523 JLINK_WriteReg(R3, 0x00000000)  returns 0x00 (0000ms, 0881ms total)
T4748 1743:523 JLINK_WriteReg(R4, 0x00000000)  returns 0x00 (0000ms, 0881ms total)
T4748 1743:523 JLINK_WriteReg(R5, 0x00000000)  returns 0x00 (0000ms, 0881ms total)
T4748 1743:523 JLINK_WriteReg(R6, 0x00000000)  returns 0x00 (0000ms, 0881ms total)
T4748 1743:523 JLINK_WriteReg(R7, 0x00000000)  returns 0x00 (0000ms, 0881ms total)
T4748 1743:523 JLINK_WriteReg(R8, 0x00000000)  returns 0x00 (0000ms, 0881ms total)
T4748 1743:523 JLINK_WriteReg(R9, 0x20000184)  returns 0x00 (0000ms, 0881ms total)
T4748 1743:523 JLINK_WriteReg(R10, 0x00000000)  returns 0x00 (0000ms, 0881ms total)
T4748 1743:523 JLINK_WriteReg(R11, 0x00000000)  returns 0x00 (0000ms, 0881ms total)
T4748 1743:523 JLINK_WriteReg(R12, 0x00000000)  returns 0x00 (0000ms, 0881ms total)
T4748 1743:523 JLINK_WriteReg(R13 (SP), 0x20001000)  returns 0x00 (0000ms, 0881ms total)
T4748 1743:523 JLINK_WriteReg(R14, 0x20000001)  returns 0x00 (0000ms, 0881ms total)
T4748 1743:523 JLINK_WriteReg(R15 (PC), 0x20000020)  returns 0x00 (0000ms, 0881ms total)
T4748 1743:523 JLINK_WriteReg(XPSR, 0x01000000)  returns 0x00 (0000ms, 0881ms total)
T4748 1743:523 JLINK_WriteReg(MSP, 0x20001000)  returns 0x00 (0000ms, 0881ms total)
T4748 1743:523 JLINK_WriteReg(PSP, 0x20001000)  returns 0x00 (0000ms, 0881ms total)
T4748 1743:523 JLINK_WriteReg(CFBP, 0x00000000)  returns 0x00 (0000ms, 0881ms total)
T4748 1743:523 JLINK_SetBPEx(Addr = 0x20000000, Type = 0xFFFFFFF2)  returns 0x00000006 (0000ms, 0881ms total)
T4748 1743:523 JLINK_Go() (0001ms, 0882ms total)
T4748 1743:524 JLINK_IsHalted()  returns FALSE (0001ms, 0883ms total)
T4748 1743:527 JLINK_IsHalted()  returns FALSE (0000ms, 0882ms total)
T4748 1743:529 JLINK_IsHalted()  returns FALSE (0000ms, 0882ms total)
T4748 1743:530 JLINK_IsHalted()  returns FALSE (0001ms, 0883ms total)
T4748 1743:533 JLINK_IsHalted()  returns FALSE (0000ms, 0882ms total)
T4748 1743:535 JLINK_IsHalted()  returns FALSE (0000ms, 0882ms total)
T4748 1743:537 JLINK_IsHalted()  returns FALSE (0000ms, 0882ms total)
T4748 1743:539 JLINK_IsHalted() -- CPU_ReadMem(2 bytes @ 0x20000000)  returns TRUE (0003ms, 0885ms total)
T4748 1743:542 JLINK_ReadReg(R15 (PC))  returns 0x20000000 (0000ms, 0882ms total)
T4748 1743:542 JLINK_ClrBPEx(BPHandle = 0x00000006)  returns 0x00 (0000ms, 0882ms total)
T4748 1743:542 JLINK_ReadReg(R0)  returns 0x00000000 (0000ms, 0882ms total)
T4748 1743:542 JLINK_WriteReg(R0, 0x00000001)  returns 0x00 (0000ms, 0882ms total)
T4748 1743:542 JLINK_WriteReg(R1, 0x00004000)  returns 0x00 (0000ms, 0882ms total)
T4748 1743:542 JLINK_WriteReg(R2, 0x000000FF)  returns 0x00 (0000ms, 0882ms total)
T4748 1743:542 JLINK_WriteReg(R3, 0x00000000)  returns 0x00 (0000ms, 0882ms total)
T4748 1743:542 JLINK_WriteReg(R4, 0x00000000)  returns 0x00 (0000ms, 0882ms total)
T4748 1743:542 JLINK_WriteReg(R5, 0x00000000)  returns 0x00 (0000ms, 0882ms total)
T4748 1743:542 JLINK_WriteReg(R6, 0x00000000)  returns 0x00 (0000ms, 0882ms total)
T4748 1743:542 JLINK_WriteReg(R7, 0x00000000)  returns 0x00 (0000ms, 0882ms total)
T4748 1743:542 JLINK_WriteReg(R8, 0x00000000)  returns 0x00 (0000ms, 0882ms total)
T4748 1743:542 JLINK_WriteReg(R9, 0x20000184)  returns 0x00 (0000ms, 0882ms total)
T4748 1743:542 JLINK_WriteReg(R10, 0x00000000)  returns 0x00 (0000ms, 0882ms total)
T4748 1743:542 JLINK_WriteReg(R11, 0x00000000)  returns 0x00 (0000ms, 0882ms total)
T4748 1743:542 JLINK_WriteReg(R12, 0x00000000)  returns 0x00 (0000ms, 0882ms total)
T4748 1743:542 JLINK_WriteReg(R13 (SP), 0x20001000)  returns 0x00 (0000ms, 0882ms total)
T4748 1743:542 JLINK_WriteReg(R14, 0x20000001)  returns 0x00 (0000ms, 0882ms total)
T4748 1743:542 JLINK_WriteReg(R15 (PC), 0x2000008C)  returns 0x00 (0000ms, 0882ms total)
T4748 1743:542 JLINK_WriteReg(XPSR, 0x01000000)  returns 0x00 (0000ms, 0882ms total)
T4748 1743:542 JLINK_WriteReg(MSP, 0x20001000)  returns 0x00 (0000ms, 0882ms total)
T4748 1743:542 JLINK_WriteReg(PSP, 0x20001000)  returns 0x00 (0000ms, 0882ms total)
T4748 1743:542 JLINK_WriteReg(CFBP, 0x00000000)  returns 0x00 (0000ms, 0882ms total)
T4748 1743:542 JLINK_SetBPEx(Addr = 0x20000000, Type = 0xFFFFFFF2)  returns 0x00000007 (0000ms, 0882ms total)
T4748 1743:542 JLINK_Go() (0002ms, 0884ms total)
T4748 1743:544 JLINK_IsHalted() -- CPU_ReadMem(2 bytes @ 0x20000000)  returns TRUE (0003ms, 0887ms total)
T4748 1743:547 JLINK_ReadReg(R15 (PC))  returns 0x20000000 (0000ms, 0884ms total)
T4748 1743:547 JLINK_ClrBPEx(BPHandle = 0x00000007)  returns 0x00 (0000ms, 0884ms total)
T4748 1743:547 JLINK_ReadReg(R0)  returns 0x00000000 (0000ms, 0884ms total)
T4748 1743:606 JLINK_WriteMem(0x20000000, 0x0188 Bytes, ...) - Data: 00 BE 0A E0 0D 78 2D 06 68 40 08 24 40 00 00 D3 ... -- CPU_WriteMem(392 bytes @ 0x20000000)  returns 0x188 (0002ms, 0886ms total)
T4748 1743:608 JLINK_WriteReg(R0, 0x08000000)  returns 0x00 (0000ms, 0886ms total)
T4748 1743:608 JLINK_WriteReg(R1, 0x017D7840)  returns 0x00 (0000ms, 0886ms total)
T4748 1743:608 JLINK_WriteReg(R2, 0x00000002)  returns 0x00 (0000ms, 0886ms total)
T4748 1743:608 JLINK_WriteReg(R3, 0x00000000)  returns 0x00 (0000ms, 0886ms total)
T4748 1743:608 JLINK_WriteReg(R4, 0x00000000)  returns 0x00 (0000ms, 0886ms total)
T4748 1743:608 JLINK_WriteReg(R5, 0x00000000)  returns 0x00 (0000ms, 0886ms total)
T4748 1743:608 JLINK_WriteReg(R6, 0x00000000)  returns 0x00 (0000ms, 0886ms total)
T4748 1743:608 JLINK_WriteReg(R7, 0x00000000)  returns 0x00 (0000ms, 0886ms total)
T4748 1743:608 JLINK_WriteReg(R8, 0x00000000)  returns 0x00 (0000ms, 0886ms total)
T4748 1743:608 JLINK_WriteReg(R9, 0x20000184)  returns 0x00 (0000ms, 0886ms total)
T4748 1743:608 JLINK_WriteReg(R10, 0x00000000)  returns 0x00 (0000ms, 0886ms total)
T4748 1743:608 JLINK_WriteReg(R11, 0x00000000)  returns 0x00 (0000ms, 0886ms total)
T4748 1743:608 JLINK_WriteReg(R12, 0x00000000)  returns 0x00 (0000ms, 0886ms total)
T4748 1743:608 JLINK_WriteReg(R13 (SP), 0x20001000)  returns 0x00 (0001ms, 0887ms total)
T4748 1743:609 JLINK_WriteReg(R14, 0x20000001)  returns 0x00 (0000ms, 0887ms total)
T4748 1743:609 JLINK_WriteReg(R15 (PC), 0x2000005E)  returns 0x00 (0000ms, 0887ms total)
T4748 1743:609 JLINK_WriteReg(XPSR, 0x01000000)  returns 0x00 (0000ms, 0887ms total)
T4748 1743:609 JLINK_WriteReg(MSP, 0x20001000)  returns 0x00 (0000ms, 0887ms total)
T4748 1743:609 JLINK_WriteReg(PSP, 0x20001000)  returns 0x00 (0000ms, 0887ms total)
T4748 1743:609 JLINK_WriteReg(CFBP, 0x00000000)  returns 0x00 (0000ms, 0887ms total)
T4748 1743:609 JLINK_SetBPEx(Addr = 0x20000000, Type = 0xFFFFFFF2) -- CPU_ReadMem(2 bytes @ 0x20000000)  returns 0x00000008 (0000ms, 0887ms total)
T4748 1743:609 JLINK_Go() -- CPU_WriteMem(2 bytes @ 0x20000000) (0004ms, 0891ms total)
T4748 1743:613 JLINK_IsHalted() -- CPU_ReadMem(2 bytes @ 0x20000000)  returns TRUE (0002ms, 0893ms total)
T4748 1743:615 JLINK_ReadReg(R15 (PC))  returns 0x20000000 (0000ms, 0891ms total)
T4748 1743:615 JLINK_ClrBPEx(BPHandle = 0x00000008)  returns 0x00 (0000ms, 0891ms total)
T4748 1743:615 JLINK_ReadReg(R0)  returns 0x00000000 (0000ms, 0891ms total)
T4748 1743:616 JLINK_WriteMem(0x20000188, 0x0278 Bytes, ...) - Data: F0 54 00 20 5D 02 00 08 4B 4A 00 08 C5 41 00 08 ... -- CPU_WriteMem(632 bytes @ 0x20000188)  returns 0x278 (0002ms, 0893ms total)
T4748 1743:618 JLINK_WriteMem(0x20000400, 0x0188 Bytes, ...) - Data: 09 4E 00 08 89 01 00 08 2D E9 F0 5F 05 46 00 20 ... -- CPU_WriteMem(392 bytes @ 0x20000400)  returns 0x188 (0002ms, 0895ms total)
T4748 1743:620 JLINK_WriteReg(R0, 0x08000000)  returns 0x00 (0000ms, 0895ms total)
T4748 1743:620 JLINK_WriteReg(R1, 0x00000400)  returns 0x00 (0000ms, 0895ms total)
T4748 1743:620 JLINK_WriteReg(R2, 0x20000188)  returns 0x00 (0000ms, 0895ms total)
T4748 1743:620 JLINK_WriteReg(R3, 0x00000000)  returns 0x00 (0000ms, 0895ms total)
T4748 1743:620 JLINK_WriteReg(R4, 0x00000000)  returns 0x00 (0000ms, 0895ms total)
T4748 1743:620 JLINK_WriteReg(R5, 0x00000000)  returns 0x00 (0000ms, 0895ms total)
T4748 1743:620 JLINK_WriteReg(R6, 0x00000000)  returns 0x00 (0000ms, 0895ms total)
T4748 1743:620 JLINK_WriteReg(R7, 0x00000000)  returns 0x00 (0000ms, 0895ms total)
T4748 1743:620 JLINK_WriteReg(R8, 0x00000000)  returns 0x00 (0000ms, 0895ms total)
T4748 1743:620 JLINK_WriteReg(R9, 0x20000184)  returns 0x00 (0000ms, 0895ms total)
T4748 1743:620 JLINK_WriteReg(R10, 0x00000000)  returns 0x00 (0000ms, 0895ms total)
T4748 1743:620 JLINK_WriteReg(R11, 0x00000000)  returns 0x00 (0000ms, 0895ms total)
T4748 1743:620 JLINK_WriteReg(R12, 0x00000000)  returns 0x00 (0000ms, 0895ms total)
T4748 1743:620 JLINK_WriteReg(R13 (SP), 0x20001000)  returns 0x00 (0000ms, 0895ms total)
T4748 1743:620 JLINK_WriteReg(R14, 0x20000001)  returns 0x00 (0000ms, 0895ms total)
T4748 1743:620 JLINK_WriteReg(R15 (PC), 0x20000112)  returns 0x00 (0000ms, 0895ms total)
T4748 1743:620 JLINK_WriteReg(XPSR, 0x01000000)  returns 0x00 (0000ms, 0895ms total)
T4748 1743:620 JLINK_WriteReg(MSP, 0x20001000)  returns 0x00 (0000ms, 0895ms total)
T4748 1743:620 JLINK_WriteReg(PSP, 0x20001000)  returns 0x00 (0000ms, 0895ms total)
T4748 1743:620 JLINK_WriteReg(CFBP, 0x00000000)  returns 0x00 (0000ms, 0895ms total)
T4748 1743:620 JLINK_SetBPEx(Addr = 0x20000000, Type = 0xFFFFFFF2)  returns 0x00000009 (0000ms, 0895ms total)
T4748 1743:620 JLINK_Go() (0001ms, 0896ms total)
T4748 1743:621 JLINK_IsHalted()  returns FALSE (0001ms, 0897ms total)
T4748 1743:625 JLINK_IsHalted()  returns FALSE (0000ms, 0896ms total)
T4748 1743:627 JLINK_IsHalted() -- CPU_ReadMem(2 bytes @ 0x20000000)  returns TRUE (0002ms, 0898ms total)
T4748 1743:629 JLINK_ReadReg(R15 (PC))  returns 0x20000000 (0000ms, 0896ms total)
T4748 1743:629 JLINK_ClrBPEx(BPHandle = 0x00000009)  returns 0x00 (0000ms, 0896ms total)
T4748 1743:629 JLINK_ReadReg(R0)  returns 0x00000000 (0000ms, 0896ms total)
T4748 1743:630 JLINK_WriteMem(0x20000188, 0x0278 Bytes, ...) - Data: 9A F8 03 B0 BD E8 F0 8F 00 20 01 46 F9 E7 00 F0 ... -- CPU_WriteMem(632 bytes @ 0x20000188)  returns 0x278 (0002ms, 0898ms total)
T4748 1743:632 JLINK_WriteMem(0x20000400, 0x0188 Bytes, ...) - Data: 00 42 02 EA 07 52 CD E9 00 42 00 1C 41 F5 80 11 ... -- CPU_WriteMem(392 bytes @ 0x20000400)  returns 0x188 (0002ms, 0900ms total)
T4748 1743:634 JLINK_WriteReg(R0, 0x08000400)  returns 0x00 (0000ms, 0900ms total)
T4748 1743:634 JLINK_WriteReg(R1, 0x00000400)  returns 0x00 (0000ms, 0900ms total)
T4748 1743:634 JLINK_WriteReg(R2, 0x20000188)  returns 0x00 (0000ms, 0900ms total)
T4748 1743:634 JLINK_WriteReg(R3, 0x00000000)  returns 0x00 (0000ms, 0900ms total)
T4748 1743:634 JLINK_WriteReg(R4, 0x00000000)  returns 0x00 (0000ms, 0900ms total)
T4748 1743:634 JLINK_WriteReg(R5, 0x00000000)  returns 0x00 (0000ms, 0900ms total)
T4748 1743:634 JLINK_WriteReg(R6, 0x00000000)  returns 0x00 (0000ms, 0900ms total)
T4748 1743:634 JLINK_WriteReg(R7, 0x00000000)  returns 0x00 (0000ms, 0900ms total)
T4748 1743:634 JLINK_WriteReg(R8, 0x00000000)  returns 0x00 (0000ms, 0900ms total)
T4748 1743:634 JLINK_WriteReg(R9, 0x20000184)  returns 0x00 (0000ms, 0900ms total)
T4748 1743:634 JLINK_WriteReg(R10, 0x00000000)  returns 0x00 (0000ms, 0900ms total)
T4748 1743:634 JLINK_WriteReg(R11, 0x00000000)  returns 0x00 (0000ms, 0900ms total)
T4748 1743:634 JLINK_WriteReg(R12, 0x00000000)  returns 0x00 (0000ms, 0900ms total)
T4748 1743:634 JLINK_WriteReg(R13 (SP), 0x20001000)  returns 0x00 (0000ms, 0900ms total)
T4748 1743:634 JLINK_WriteReg(R14, 0x20000001)  returns 0x00 (0000ms, 0900ms total)
T4748 1743:634 JLINK_WriteReg(R15 (PC), 0x20000112)  returns 0x00 (0000ms, 0900ms total)
T4748 1743:634 JLINK_WriteReg(XPSR, 0x01000000)  returns 0x00 (0000ms, 0900ms total)
T4748 1743:634 JLINK_WriteReg(MSP, 0x20001000)  returns 0x00 (0000ms, 0900ms total)
T4748 1743:634 JLINK_WriteReg(PSP, 0x20001000)  returns 0x00 (0000ms, 0900ms total)
T4748 1743:634 JLINK_WriteReg(CFBP, 0x00000000)  returns 0x00 (0000ms, 0900ms total)
T4748 1743:634 JLINK_SetBPEx(Addr = 0x20000000, Type = 0xFFFFFFF2)  returns 0x0000000A (0000ms, 0900ms total)
T4748 1743:634 JLINK_Go() (0002ms, 0902ms total)
T4748 1743:636 JLINK_IsHalted()  returns FALSE (0000ms, 0902ms total)
T4748 1743:640 JLINK_IsHalted() -- CPU_ReadMem(2 bytes @ 0x20000000)  returns TRUE (0003ms, 0905ms total)
T4748 1743:643 JLINK_ReadReg(R15 (PC))  returns 0x20000000 (0000ms, 0902ms total)
T4748 1743:643 JLINK_ClrBPEx(BPHandle = 0x0000000A)  returns 0x00 (0000ms, 0902ms total)
T4748 1743:643 JLINK_ReadReg(R0)  returns 0x00000000 (0000ms, 0902ms total)
T4748 1743:643 JLINK_WriteMem(0x20000188, 0x0278 Bytes, ...) - Data: 06 4C 07 4D 06 E0 E0 68 40 F0 01 03 94 E8 07 00 ... -- CPU_WriteMem(632 bytes @ 0x20000188)  returns 0x278 (0003ms, 0905ms total)
T4748 1743:646 JLINK_WriteMem(0x20000400, 0x0188 Bytes, ...) - Data: 80 46 B3 F9 00 30 DD E9 13 10 00 EE 10 3A DD E9 ... -- CPU_WriteMem(392 bytes @ 0x20000400)  returns 0x188 (0002ms, 0907ms total)
T4748 1743:648 JLINK_WriteReg(R0, 0x08000800)  returns 0x00 (0000ms, 0907ms total)
T4748 1743:648 JLINK_WriteReg(R1, 0x00000400)  returns 0x00 (0000ms, 0907ms total)
T4748 1743:648 JLINK_WriteReg(R2, 0x20000188)  returns 0x00 (0000ms, 0907ms total)
T4748 1743:648 JLINK_WriteReg(R3, 0x00000000)  returns 0x00 (0000ms, 0907ms total)
T4748 1743:648 JLINK_WriteReg(R4, 0x00000000)  returns 0x00 (0000ms, 0907ms total)
T4748 1743:648 JLINK_WriteReg(R5, 0x00000000)  returns 0x00 (0000ms, 0907ms total)
T4748 1743:648 JLINK_WriteReg(R6, 0x00000000)  returns 0x00 (0000ms, 0907ms total)
T4748 1743:648 JLINK_WriteReg(R7, 0x00000000)  returns 0x00 (0000ms, 0907ms total)
T4748 1743:648 JLINK_WriteReg(R8, 0x00000000)  returns 0x00 (0000ms, 0907ms total)
T4748 1743:648 JLINK_WriteReg(R9, 0x20000184)  returns 0x00 (0000ms, 0907ms total)
T4748 1743:648 JLINK_WriteReg(R10, 0x00000000)  returns 0x00 (0000ms, 0907ms total)
T4748 1743:648 JLINK_WriteReg(R11, 0x00000000)  returns 0x00 (0000ms, 0907ms total)
T4748 1743:648 JLINK_WriteReg(R12, 0x00000000)  returns 0x00 (0000ms, 0907ms total)
T4748 1743:648 JLINK_WriteReg(R13 (SP), 0x20001000)  returns 0x00 (0000ms, 0907ms total)
T4748 1743:648 JLINK_WriteReg(R14, 0x20000001)  returns 0x00 (0000ms, 0907ms total)
T4748 1743:648 JLINK_WriteReg(R15 (PC), 0x20000112)  returns 0x00 (0000ms, 0907ms total)
T4748 1743:648 JLINK_WriteReg(XPSR, 0x01000000)  returns 0x00 (0000ms, 0907ms total)
T4748 1743:648 JLINK_WriteReg(MSP, 0x20001000)  returns 0x00 (0000ms, 0907ms total)
T4748 1743:648 JLINK_WriteReg(PSP, 0x20001000)  returns 0x00 (0000ms, 0907ms total)
T4748 1743:648 JLINK_WriteReg(CFBP, 0x00000000)  returns 0x00 (0000ms, 0907ms total)
T4748 1743:648 JLINK_SetBPEx(Addr = 0x20000000, Type = 0xFFFFFFF2)  returns 0x0000000B (0000ms, 0907ms total)
T4748 1743:648 JLINK_Go() (0002ms, 0909ms total)
T4748 1743:650 JLINK_IsHalted()  returns FALSE (0000ms, 0909ms total)
T4748 1743:652 JLINK_IsHalted()  returns FALSE (0001ms, 0910ms total)
T4748 1743:655 JLINK_IsHalted() -- CPU_ReadMem(2 bytes @ 0x20000000)  returns TRUE (0002ms, 0911ms total)
T4748 1743:657 JLINK_ReadReg(R15 (PC))  returns 0x20000000 (0000ms, 0909ms total)
T4748 1743:657 JLINK_ClrBPEx(BPHandle = 0x0000000B)  returns 0x00 (0000ms, 0909ms total)
T4748 1743:657 JLINK_ReadReg(R0)  returns 0x00000000 (0000ms, 0909ms total)
T4748 1743:658 JLINK_WriteMem(0x20000188, 0x0278 Bytes, ...) - Data: 00 E0 5C E1 60 EE 80 4A B0 EE 00 8A C4 ED 12 4A ... -- CPU_WriteMem(632 bytes @ 0x20000188)  returns 0x278 (0002ms, 0911ms total)
T4748 1743:660 JLINK_WriteMem(0x20000400, 0x0188 Bytes, ...) - Data: CA FA 41 EC 10 0B B0 EE 49 1A F0 EE 69 1A 0F E0 ... -- CPU_WriteMem(392 bytes @ 0x20000400)  returns 0x188 (0001ms, 0912ms total)
T4748 1743:661 JLINK_WriteReg(R0, 0x08000C00)  returns 0x00 (0000ms, 0912ms total)
T4748 1743:661 JLINK_WriteReg(R1, 0x00000400)  returns 0x00 (0000ms, 0912ms total)
T4748 1743:661 JLINK_WriteReg(R2, 0x20000188)  returns 0x00 (0000ms, 0912ms total)
T4748 1743:661 JLINK_WriteReg(R3, 0x00000000)  returns 0x00 (0000ms, 0912ms total)
T4748 1743:661 JLINK_WriteReg(R4, 0x00000000)  returns 0x00 (0000ms, 0912ms total)
T4748 1743:661 JLINK_WriteReg(R5, 0x00000000)  returns 0x00 (0000ms, 0912ms total)
T4748 1743:661 JLINK_WriteReg(R6, 0x00000000)  returns 0x00 (0000ms, 0912ms total)
T4748 1743:661 JLINK_WriteReg(R7, 0x00000000)  returns 0x00 (0000ms, 0912ms total)
T4748 1743:661 JLINK_WriteReg(R8, 0x00000000)  returns 0x00 (0000ms, 0912ms total)
T4748 1743:661 JLINK_WriteReg(R9, 0x20000184)  returns 0x00 (0000ms, 0912ms total)
T4748 1743:661 JLINK_WriteReg(R10, 0x00000000)  returns 0x00 (0000ms, 0912ms total)
T4748 1743:661 JLINK_WriteReg(R11, 0x00000000)  returns 0x00 (0000ms, 0912ms total)
T4748 1743:661 JLINK_WriteReg(R12, 0x00000000)  returns 0x00 (0000ms, 0912ms total)
T4748 1743:661 JLINK_WriteReg(R13 (SP), 0x20001000)  returns 0x00 (0000ms, 0912ms total)
T4748 1743:663 JLINK_WriteReg(R14, 0x20000001)  returns 0x00 (0000ms, 0914ms total)
T4748 1743:663 JLINK_WriteReg(R15 (PC), 0x20000112)  returns 0x00 (0000ms, 0914ms total)
T4748 1743:663 JLINK_WriteReg(XPSR, 0x01000000)  returns 0x00 (0000ms, 0914ms total)
T4748 1743:663 JLINK_WriteReg(MSP, 0x20001000)  returns 0x00 (0000ms, 0914ms total)
T4748 1743:663 JLINK_WriteReg(PSP, 0x20001000)  returns 0x00 (0000ms, 0914ms total)
T4748 1743:663 JLINK_WriteReg(CFBP, 0x00000000)  returns 0x00 (0000ms, 0914ms total)
T4748 1743:663 JLINK_SetBPEx(Addr = 0x20000000, Type = 0xFFFFFFF2)  returns 0x0000000C (0000ms, 0914ms total)
T4748 1743:663 JLINK_Go() (0000ms, 0914ms total)
T4748 1743:663 JLINK_IsHalted()  returns FALSE (0001ms, 0915ms total)
T4748 1743:666 JLINK_IsHalted()  returns FALSE (0001ms, 0915ms total)
T4748 1743:669 JLINK_IsHalted() -- CPU_ReadMem(2 bytes @ 0x20000000)  returns TRUE (0002ms, 0916ms total)
T4748 1743:671 JLINK_ReadReg(R15 (PC))  returns 0x20000000 (0000ms, 0914ms total)
T4748 1743:671 JLINK_ClrBPEx(BPHandle = 0x0000000C)  returns 0x00 (0000ms, 0914ms total)
T4748 1743:671 JLINK_ReadReg(R0)  returns 0x00000000 (0000ms, 0914ms total)
T4748 1743:671 JLINK_WriteMem(0x20000188, 0x0278 Bytes, ...) - Data: B0 0D 00 20 70 B5 17 4C A0 F5 00 72 01 3A 14 D0 ... -- CPU_WriteMem(632 bytes @ 0x20000188)  returns 0x278 (0003ms, 0917ms total)
T4748 1743:674 JLINK_WriteMem(0x20000400, 0x0188 Bytes, ...) - Data: C0 E9 06 12 C0 E9 08 21 70 47 70 B5 05 46 90 F8 ... -- CPU_WriteMem(392 bytes @ 0x20000400)  returns 0x188 (0002ms, 0919ms total)
T4748 1743:676 JLINK_WriteReg(R0, 0x08001000)  returns 0x00 (0000ms, 0919ms total)
T4748 1743:676 JLINK_WriteReg(R1, 0x00000400)  returns 0x00 (0000ms, 0919ms total)
T4748 1743:676 JLINK_WriteReg(R2, 0x20000188)  returns 0x00 (0000ms, 0919ms total)
T4748 1743:676 JLINK_WriteReg(R3, 0x00000000)  returns 0x00 (0000ms, 0919ms total)
T4748 1743:676 JLINK_WriteReg(R4, 0x00000000)  returns 0x00 (0000ms, 0919ms total)
T4748 1743:676 JLINK_WriteReg(R5, 0x00000000)  returns 0x00 (0000ms, 0919ms total)
T4748 1743:676 JLINK_WriteReg(R6, 0x00000000)  returns 0x00 (0000ms, 0919ms total)
T4748 1743:676 JLINK_WriteReg(R7, 0x00000000)  returns 0x00 (0000ms, 0919ms total)
T4748 1743:676 JLINK_WriteReg(R8, 0x00000000)  returns 0x00 (0000ms, 0919ms total)
T4748 1743:676 JLINK_WriteReg(R9, 0x20000184)  returns 0x00 (0000ms, 0919ms total)
T4748 1743:676 JLINK_WriteReg(R10, 0x00000000)  returns 0x00 (0000ms, 0919ms total)
T4748 1743:676 JLINK_WriteReg(R11, 0x00000000)  returns 0x00 (0000ms, 0919ms total)
T4748 1743:676 JLINK_WriteReg(R12, 0x00000000)  returns 0x00 (0000ms, 0919ms total)
T4748 1743:676 JLINK_WriteReg(R13 (SP), 0x20001000)  returns 0x00 (0000ms, 0919ms total)
